
**** 12/02/22 09:29:39 ******* PSpice 17.4.0 (Nov 2018) ******* ID# 0 ********

 ** Profile: "SCHEMATIC1-lab4"  [ D:\MDDT\LAB4\lab4-PSpiceFiles\SCHEMATIC1\lab4.sim ] 


 ****     CIRCUIT DESCRIPTION


******************************************************************************




** Creating circuit file "lab4.cir" 
** WARNING: THIS AUTOMATICALLY GENERATED FILE MAY BE OVERWRITTEN BY SUBSEQUENT SIMULATIONS

*Libraries: 
* Profile Libraries :
* Local Libraries :
* From [PSPICE NETLIST] section of C:\cds_spb_home\cdssetup\OrCAD_PSpiceTIPSpice_Install\17.4.0\PSpice.ini file:
.lib "nom_pspti.lib" 
.lib "nom.lib" 

*Analysis directives: 
.OPTIONS ADVCONV
.OPTIONS FILEMODELSEARCH
.PROBE64 V(alias(*)) I(alias(*)) W(alias(*)) D(alias(*)) NOISE(alias(*)) 
.INC "..\SCHEMATIC1.net" 



**** INCLUDING SCHEMATIC1.net ****
* source LAB4
E_U1         N01138 0 VALUE {LIMIT(V(N01092,N00137)*1E6,-20V,+20V)}
R_R1         N00137 N01138  9k TC=0,0 
V_V1         N00132 0 1Vdc
R_R3         0 N00137  1k TC=0,0 
R_R4         N01092 N00132  1k TC=0,0 
V_V3         N00931 0 2Vdc
R_R5         N01092 N00931  2k TC=0,0 
V_V4         N01044 0 3Vdc
R_R6         N01092 N01044  5k TC=0,0 

**** RESUMING lab4.cir ****
.END

**** 12/02/22 09:29:39 ******* PSpice 17.4.0 (Nov 2018) ******* ID# 0 ********

 ** Profile: "SCHEMATIC1-lab4"  [ D:\MDDT\LAB4\lab4-PSpiceFiles\SCHEMATIC1\lab4.sim ] 


 ****     SMALL SIGNAL BIAS SOLUTION       TEMPERATURE =   27.000 DEG C


******************************************************************************



 NODE   VOLTAGE     NODE   VOLTAGE     NODE   VOLTAGE     NODE   VOLTAGE


(N00132)    1.0000 (N00137)    1.5294 (N00931)    2.0000 (N01044)    3.0000     

(N01092)    1.5294 (N01138)   15.2940 




    VOLTAGE SOURCE CURRENTS
    NAME         CURRENT

    V_V1         5.294E-04
    V_V3        -2.353E-04
    V_V4        -2.941E-04

    TOTAL POWER DISSIPATION   8.24E-04  WATTS



          JOB CONCLUDED

**** 12/02/22 09:29:39 ******* PSpice 17.4.0 (Nov 2018) ******* ID# 0 ********

 ** Profile: "SCHEMATIC1-lab4"  [ D:\MDDT\LAB4\lab4-PSpiceFiles\SCHEMATIC1\lab4.sim ] 


 ****     JOB STATISTICS SUMMARY


******************************************************************************



  License check-out time            =      112.70
  Total job time (using Solver 1)   =         .20
