
**** 12/02/22 09:36:05 ******* PSpice 17.4.0 (Nov 2018) ******* ID# 0 ********

 ** Profile: "SCHEMATIC1-lab4"  [ D:\MDDT\LAB4\lab4-PSpiceFiles\SCHEMATIC1\lab4.sim ] 


 ****     CIRCUIT DESCRIPTION


******************************************************************************




** Creating circuit file "lab4.cir" 
** WARNING: THIS AUTOMATICALLY GENERATED FILE MAY BE OVERWRITTEN BY SUBSEQUENT SIMULATIONS

*Libraries: 
* Profile Libraries :
* Local Libraries :
* From [PSPICE NETLIST] section of C:\cds_spb_home\cdssetup\OrCAD_PSpiceTIPSpice_Install\17.4.0\PSpice.ini file:
.lib "nom_pspti.lib" 
.lib "nom.lib" 

*Analysis directives: 
.OPTIONS ADVCONV
.OPTIONS FILEMODELSEARCH
.PROBE64 V(alias(*)) I(alias(*)) W(alias(*)) D(alias(*)) NOISE(alias(*)) 
.INC "..\SCHEMATIC1.net" 



**** INCLUDING SCHEMATIC1.net ****
* source LAB4
E_U1         N01138 0 VALUE {LIMIT(V(0,N00137)*1E6,-40V,+40V)}
R_R1         N00137 N01138  10k TC=0,0 
V_V1         N00132 0 1Vdc
R_R4         N00137 N00132  1k TC=0,0 
V_V2         N00931 0 5Vdc
R_R5         N00137 N00931  2k TC=0,0 

**** RESUMING lab4.cir ****
.END

**** 12/02/22 09:36:05 ******* PSpice 17.4.0 (Nov 2018) ******* ID# 0 ********

 ** Profile: "SCHEMATIC1-lab4"  [ D:\MDDT\LAB4\lab4-PSpiceFiles\SCHEMATIC1\lab4.sim ] 


 ****     SMALL SIGNAL BIAS SOLUTION       TEMPERATURE =   27.000 DEG C


******************************************************************************



 NODE   VOLTAGE     NODE   VOLTAGE     NODE   VOLTAGE     NODE   VOLTAGE


(N00132)    1.0000 (N00137) 35.00E-06 (N00931)    5.0000 (N01138)  -34.9990 




    VOLTAGE SOURCE CURRENTS
    NAME         CURRENT

    V_V1        -1.000E-03
    V_V2        -2.500E-03

    TOTAL POWER DISSIPATION   1.35E-02  WATTS



          JOB CONCLUDED

**** 12/02/22 09:36:05 ******* PSpice 17.4.0 (Nov 2018) ******* ID# 0 ********

 ** Profile: "SCHEMATIC1-lab4"  [ D:\MDDT\LAB4\lab4-PSpiceFiles\SCHEMATIC1\lab4.sim ] 


 ****     JOB STATISTICS SUMMARY


******************************************************************************



  License check-out time            =      113.14
  Total job time (using Solver 1)   =         .20
